!Agilent Technologies,E8364B,MY43040217,A.06.04.32
!Agilent E8364B: A.06.04.32
!Date: Wednesday, November 16, 2022 08:30:59
!Correction: S11(Full 2 Port(1,2)) S21(Full 2 Port(1,2)) S12(Full 2 Port(1,2)) S22(Full 2 Port(1,2)) 
!S2P File: Measurements: S11, S21, S12, S22:
# Hz S  dB   R 50
1000000000 -4.115120e-001 -1.655878e+002 8.658904e+000 -6.189944e+000 -5.013524e+001 -5.826835e+001 -1.402137e+001 8.356805e+000
1020000000 -3.967240e-001 -1.687873e+002 8.494088e+000 -1.146545e+001 -5.045480e+001 -6.423219e+001 -1.675482e+001 6.136256e+001
1040000000 -3.826410e-001 -1.720036e+002 8.357966e+000 -1.666376e+001 -4.969683e+001 -6.678347e+001 -1.854576e+001 1.153805e+002
1060000000 -3.634848e-001 -1.751505e+002 8.256490e+000 -2.199779e+001 -4.878105e+001 -6.610651e+001 -2.192477e+001 1.338242e+002
1080000000 -3.376784e-001 -1.783569e+002 8.196080e+000 -2.756687e+001 -4.848997e+001 -7.610412e+001 -2.466642e+001 1.380161e+002
1100000000 -3.376135e-001 1.784292e+002 8.059324e+000 -3.317142e+001 -4.901947e+001 -7.661257e+001 -2.435167e+001 1.427016e+002
1120000000 -3.429785e-001 1.752334e+002 7.977501e+000 -3.819416e+001 -4.865610e+001 -7.093524e+001 -2.070760e+001 1.785474e+002
1140000000 -3.535506e-001 1.720589e+002 7.930256e+000 -4.346183e+001 -4.710689e+001 -8.185575e+001 -1.777748e+001 -1.331410e+002
1160000000 -3.570975e-001 1.688686e+002 7.851242e+000 -4.875884e+001 -4.801511e+001 -9.730236e+001 -1.705140e+001 -8.587116e+001
1180000000 -3.639914e-001 1.657050e+002 7.760247e+000 -5.374135e+001 -5.004943e+001 -1.153464e+002 -1.416697e+001 -2.413680e+001
1200000000 -3.633513e-001 1.625924e+002 7.698190e+000 -5.843340e+001 -5.787083e+001 -1.267814e+002 -1.132317e+001 1.602106e+001
1220000000 -3.511412e-001 1.594649e+002 7.708210e+000 -6.326874e+001 -5.935585e+001 -6.408776e+001 -9.069398e+000 4.251891e+001
1240000000 -3.366811e-001 1.563463e+002 7.718287e+000 -6.881789e+001 -5.565828e+001 -6.043483e+001 -8.943156e+000 5.590762e+001
1260000000 -3.197755e-001 1.532565e+002 7.647109e+000 -7.451404e+001 -5.496347e+001 -6.665318e+001 -1.039783e+001 6.263746e+001
1280000000 -3.025928e-001 1.501717e+002 7.543479e+000 -7.983155e+001 -5.255367e+001 -5.922190e+001 -1.154315e+001 6.627736e+001
1300000000 -2.969029e-001 1.470222e+002 7.451672e+000 -8.457902e+001 -5.107503e+001 -7.366943e+001 -1.222609e+001 7.926806e+001
1320000000 -3.059070e-001 1.439241e+002 7.395258e+000 -8.927554e+001 -5.236724e+001 -8.214745e+001 -1.384114e+001 9.547739e+001
1340000000 -3.261419e-001 1.408427e+002 7.354978e+000 -9.388094e+001 -5.321142e+001 -9.513326e+001 -1.720878e+001 1.094590e+002
1360000000 -3.366040e-001 1.378066e+002 7.348970e+000 -9.813845e+001 -5.907615e+001 -9.012531e+001 -3.272451e+001 1.083079e+002
1380000000 -3.508767e-001 1.347563e+002 7.406960e+000 -1.024453e+002 -5.463253e+001 -4.089923e+001 -1.986469e+001 -3.105930e+001
1400000000 -3.504166e-001 1.317377e+002 7.502536e+000 -1.071295e+002 -5.017677e+001 -8.028024e+001 -1.456639e+001 -2.281301e+001
1420000000 -3.442706e-001 1.286672e+002 7.596436e+000 -1.121582e+002 -5.105211e+001 -1.143488e+002 -1.240032e+001 -1.698236e+001
1440000000 -3.321200e-001 1.255463e+002 7.690565e+000 -1.172647e+002 -5.263732e+001 -1.270694e+002 -1.096708e+001 -1.239707e+001
1460000000 -3.263340e-001 1.224643e+002 7.789545e+000 -1.225417e+002 -5.240741e+001 -1.481568e+002 -9.770241e+000 -3.950117e+000
1480000000 -3.261412e-001 1.194032e+002 7.897962e+000 -1.278856e+002 -5.166151e+001 1.797687e+002 -8.552148e+000 1.019648e+001
1500000000 -3.322554e-001 1.163653e+002 7.976605e+000 -1.333717e+002 -5.092421e+001 1.542737e+002 -8.692020e+000 2.491621e+001
1520000000 -3.455875e-001 1.133334e+002 8.043344e+000 -1.388162e+002 -5.136872e+001 1.244049e+002 -1.031127e+001 4.614827e+001
1540000000 -3.777407e-001 1.102215e+002 8.078519e+000 -1.441283e+002 -5.363680e+001 9.905883e+001 -1.493865e+001 6.603893e+001
1560000000 -4.200981e-001 1.072383e+002 8.109655e+000 -1.492969e+002 -5.517845e+001 9.349634e+001 -3.304557e+001 8.043816e+001
1580000000 -4.566986e-001 1.042467e+002 8.151588e+000 -1.547529e+002 -5.534277e+001 8.118325e+001 -1.883869e+001 -9.570235e+001
1600000000 -4.678784e-001 1.012544e+002 8.184561e+000 -1.598183e+002 -5.481373e+001 5.963742e+001 -1.291378e+001 -8.298780e+001
1620000000 -4.832005e-001 9.814687e+001 8.235909e+000 -1.648376e+002 -6.056083e+001 4.450035e+001 -9.982169e+000 -7.185714e+001
1640000000 -5.010036e-001 9.504954e+001 8.350721e+000 -1.703131e+002 -7.681595e+001 9.411539e+001 -7.567567e+000 -5.899682e+001
1660000000 -5.261149e-001 9.190234e+001 8.406032e+000 -1.762074e+002 -6.028028e+001 1.594559e+002 -5.822732e+000 -4.870682e+001
1680000000 -5.539101e-001 8.887731e+001 8.374716e+000 1.781613e+002 -5.177622e+001 1.289174e+002 -5.733387e+000 -3.849505e+001
1700000000 -5.745369e-001 8.591978e+001 8.397687e+000 1.730724e+002 -4.949208e+001 9.783942e+001 -7.571518e+000 -2.731003e+001
1720000000 -5.967976e-001 8.295596e+001 8.503135e+000 1.677471e+002 -4.856841e+001 8.894939e+001 -1.289461e+001 -1.997939e+001
1740000000 -6.196987e-001 7.996011e+001 8.529298e+000 1.615547e+002 -4.663620e+001 8.989725e+001 -2.054488e+001 -1.069740e+002
1760000000 -6.342344e-001 7.702364e+001 8.361668e+000 1.559324e+002 -4.416779e+001 7.347345e+001 -9.920375e+000 -1.404702e+002
1780000000 -6.576620e-001 7.392207e+001 8.221522e+000 1.515607e+002 -4.605223e+001 5.644810e+001 -5.977555e+000 -1.442462e+002
1800000000 -7.164370e-001 7.076278e+001 8.191808e+000 1.466410e+002 -4.802966e+001 7.136276e+001 -4.661061e+000 -1.442579e+002
1820000000 -7.957689e-001 6.765525e+001 7.982654e+000 1.408541e+002 -4.855731e+001 1.024104e+002 -4.873225e+000 -1.423353e+002
1840000000 -8.270002e-001 6.500425e+001 7.511983e+000 1.370774e+002 -4.219183e+001 1.154916e+002 -6.434059e+000 -1.291678e+002
1860000000 -7.857403e-001 6.229699e+001 6.987110e+000 1.366513e+002 -3.942814e+001 9.002699e+001 -7.084774e+000 -1.043717e+002
1880000000 -7.363129e-001 5.896222e+001 7.283957e+000 1.393718e+002 -4.093568e+001 7.414351e+001 -8.395118e+000 -7.182889e+001
1900000000 -7.135310e-001 5.519122e+001 8.170516e+000 1.381635e+002 -4.032134e+001 6.758201e+001 -8.383667e+000 -4.114102e+001
1920000000 -7.343985e-001 5.138964e+001 8.998939e+000 1.342174e+002 -3.939909e+001 6.093396e+001 -9.325245e+000 -1.426519e+001
1940000000 -8.015503e-001 4.768654e+001 9.681462e+000 1.295861e+002 -3.999266e+001 5.368978e+001 -1.196009e+001 3.628465e+000
1960000000 -9.054969e-001 4.417794e+001 1.030382e+001 1.241644e+002 -3.910431e+001 4.973247e+001 -1.616780e+001 1.841359e+001
1980000000 -1.006368e+000 4.055770e+001 1.082825e+001 1.184532e+002 -3.888517e+001 4.518606e+001 -2.266488e+001 2.753926e+001
2000000000 -1.093301e+000 3.705087e+001 1.136227e+001 1.128191e+002 -3.771611e+001 4.028294e+001 -3.833086e+001 7.436202e+001
2020000000 -1.171903e+000 3.343584e+001 1.190398e+001 1.069767e+002 -3.754361e+001 3.754588e+001 -2.183447e+001 -1.484281e+002
2040000000 -1.262690e+000 2.958662e+001 1.242026e+001 1.007660e+002 -3.665509e+001 3.868470e+001 -1.474115e+001 -1.412038e+002
2060000000 -1.379559e+000 2.554939e+001 1.295919e+001 9.437689e+001 -3.626571e+001 3.639199e+001 -1.197494e+001 -1.329389e+002
2080000000 -1.521505e+000 2.140657e+001 1.350414e+001 8.760960e+001 -3.624390e+001 3.539724e+001 -1.149928e+001 -1.230972e+002
2100000000 -1.690282e+000 1.720910e+001 1.403770e+001 8.055385e+001 -3.549934e+001 3.149394e+001 -1.319283e+001 -1.164913e+002
2120000000 -1.885276e+000 1.275316e+001 1.460415e+001 7.282654e+001 -3.414846e+001 2.972603e+001 -1.588658e+001 -1.192191e+002
2140000000 -2.144560e+000 7.914274e+000 1.511642e+001 6.471114e+001 -3.270849e+001 2.379261e+001 -2.062238e+001 -1.399771e+002
2160000000 -2.501995e+000 2.954593e+000 1.558414e+001 5.658517e+001 -3.148159e+001 1.865525e+001 -2.000467e+001 1.773398e+002
2180000000 -2.970004e+000 -1.980334e+000 1.606392e+001 4.821914e+001 -3.006240e+001 1.355514e+001 -1.512348e+001 1.473383e+002
2200000000 -3.543804e+000 -6.870329e+000 1.653828e+001 3.961478e+001 -2.868305e+001 4.502692e+000 -1.008111e+001 1.304964e+002
2220000000 -4.202013e+000 -1.187953e+001 1.702965e+001 3.065005e+001 -2.799827e+001 -4.006665e+000 -7.170376e+000 1.286614e+002
2240000000 -5.052134e+000 -1.695878e+001 1.753457e+001 2.113898e+001 -2.748900e+001 -1.043090e+001 -5.863695e+000 1.279348e+002
2260000000 -6.182527e+000 -2.184457e+001 1.800599e+001 1.082633e+001 -2.714266e+001 -1.683828e+001 -5.509533e+000 1.245357e+002
2280000000 -7.662793e+000 -2.542018e+001 1.835406e+001 -3.777801e-001 -2.692444e+001 -2.541652e+001 -6.542557e+000 1.154731e+002
2300000000 -9.566469e+000 -2.733149e+001 1.862937e+001 -1.205563e+001 -2.731392e+001 -3.688839e+001 -8.379792e+000 1.033396e+002
2320000000 -1.217905e+001 -2.382224e+001 1.877669e+001 -2.411720e+001 -2.774105e+001 -4.762695e+001 -9.965902e+000 8.152535e+001
2340000000 -1.488389e+001 -6.750437e+000 1.880054e+001 -3.677086e+001 -2.766881e+001 -5.928058e+001 -1.037443e+001 4.437225e+001
2360000000 -1.487896e+001 2.254683e+001 1.868699e+001 -4.963029e+001 -2.788707e+001 -7.362866e+001 -8.546432e+000 1.538191e+001
2380000000 -1.218251e+001 3.946310e+001 1.840478e+001 -6.242193e+001 -2.824732e+001 -8.567322e+001 -6.614844e+000 4.363288e+000
2400000000 -9.612635e+000 4.340758e+001 1.802024e+001 -7.467838e+001 -2.876486e+001 -9.372861e+001 -6.664123e+000 3.282233e+000
2420000000 -7.602867e+000 4.189327e+001 1.749328e+001 -8.669279e+001 -2.915587e+001 -1.017684e+002 -8.536047e+000 -5.079369e+000
2440000000 -6.102422e+000 3.769165e+001 1.681448e+001 -9.792858e+001 -2.982464e+001 -1.091006e+002 -1.200104e+001 -2.969545e+001
2460000000 -4.967679e+000 3.233022e+001 1.606214e+001 -1.085569e+002 -3.057059e+001 -1.176626e+002 -1.189156e+001 -7.387170e+001
2480000000 -4.131160e+000 2.646239e+001 1.519593e+001 -1.186969e+002 -3.182760e+001 -1.265496e+002 -1.028289e+001 -9.987718e+001
2500000000 -3.567755e+000 2.050491e+001 1.426152e+001 -1.279186e+002 -3.281605e+001 -1.372422e+002 -8.980555e+000 -1.228357e+002
2520000000 -3.165703e+000 1.503678e+001 1.332199e+001 -1.358604e+002 -3.395756e+001 -1.492873e+002 -7.440523e+000 -1.394206e+002
2540000000 -2.875921e+000 9.931750e+000 1.239554e+001 -1.429161e+002 -3.549308e+001 -1.537663e+002 -4.722847e+000 -1.460441e+002
2560000000 -2.681327e+000 5.319033e+000 1.148908e+001 -1.485348e+002 -3.590250e+001 -1.568682e+002 -3.591715e+000 -1.481077e+002
2580000000 -2.498526e+000 1.276530e+000 1.078802e+001 -1.522220e+002 -3.586418e+001 -1.601755e+002 -4.743333e+000 -1.517171e+002
2600000000 -2.291171e+000 -2.505296e+000 1.044611e+001 -1.560752e+002 -3.581840e+001 -1.678556e+002 -5.733199e+000 -1.569802e+002
2620000000 -2.043504e+000 -6.513340e+000 1.032335e+001 -1.619197e+002 -3.592815e+001 -1.718490e+002 -6.433118e+000 -1.624417e+002
2640000000 -1.793711e+000 -1.085438e+001 1.015117e+001 -1.694788e+002 -3.586892e+001 -1.765094e+002 -6.718730e+000 -1.662979e+002
2660000000 -1.599374e+000 -1.550219e+001 9.751040e+000 -1.774923e+002 -3.602622e+001 1.787650e+002 -7.160265e+000 -1.643375e+002
2680000000 -1.474150e+000 -2.023971e+001 9.250127e+000 1.742315e+002 -3.652762e+001 1.734956e+002 -8.942714e+000 -1.716194e+002
2700000000 -1.384667e+000 -2.496345e+001 8.736944e+000 1.662856e+002 -3.601345e+001 1.623808e+002 -1.060100e+001 1.662012e+002
2720000000 -1.315500e+000 -2.958549e+001 8.233901e+000 1.573690e+002 -3.768422e+001 1.448878e+002 -6.937900e+000 1.370920e+002
2740000000 -1.280699e+000 -3.403218e+001 7.600153e+000 1.485442e+002 -3.909462e+001 1.403525e+002 -3.321131e+000 1.309627e+002
2760000000 -1.264065e+000 -3.837640e+001 6.891271e+000 1.400480e+002 -3.887063e+001 1.329665e+002 -1.315861e+000 1.334021e+002
2780000000 -1.240882e+000 -4.276662e+001 6.055806e+000 1.325405e+002 -3.913823e+001 1.184907e+002 -9.146876e-001 1.327705e+002
2800000000 -1.222947e+000 -4.708615e+001 5.219175e+000 1.253767e+002 -3.975514e+001 1.057821e+002 -1.136881e+000 1.348215e+002
2820000000 -1.212221e+000 -5.146081e+001 4.328579e+000 1.185373e+002 -4.151283e+001 9.272389e+001 -1.658338e+000 1.383454e+002
2840000000 -1.214734e+000 -5.592998e+001 3.421459e+000 1.122534e+002 -4.449547e+001 1.074468e+002 -2.853083e+000 1.409197e+002
2860000000 -1.241903e+000 -6.042953e+001 2.513792e+000 1.061902e+002 -4.292033e+001 1.105248e+002 -5.098562e+000 1.398638e+002
2880000000 -1.272414e+000 -6.492424e+001 1.685436e+000 1.002298e+002 -4.481567e+001 1.011081e+002 -7.483606e+000 1.202368e+002
2900000000 -1.316596e+000 -6.946909e+001 7.903867e-001 9.381323e+001 -4.806895e+001 1.257795e+002 -7.032938e+000 8.133250e+001
2920000000 -1.368051e+000 -7.391591e+001 -3.783162e-002 8.722294e+001 -4.564224e+001 1.143518e+002 -3.290646e+000 6.956203e+001
2940000000 -1.415231e+000 -7.846611e+001 -9.566191e-001 8.061558e+001 -4.852000e+001 1.048726e+002 -8.274586e-001 6.714481e+001
2960000000 -1.466775e+000 -8.306043e+001 -1.986315e+000 7.342943e+001 -5.244145e+001 9.457526e+001 6.022832e-001 7.240806e+001
2980000000 -1.516981e+000 -8.774933e+001 -3.135783e+000 6.646068e+001 -5.734081e+001 1.064763e+002 8.461595e-001 7.956649e+001
3000000000 -1.564010e+000 -9.253170e+001 -4.395383e+000 6.025169e+001 -6.695198e+001 1.001937e+002 2.290284e-001 8.442888e+001
3020000000 -1.636061e+000 -9.746194e+001 -5.953956e+000 5.546218e+001 -6.024087e+001 -1.400041e+002 -1.093035e+000 9.325409e+001
3040000000 -1.722072e+000 -1.025487e+002 -7.440256e+000 5.231397e+001 -5.179377e+001 -1.429877e+002 -3.394575e+000 1.024785e+002
3060000000 -1.817828e+000 -1.077737e+002 -8.707178e+000 4.935991e+001 -4.603028e+001 -1.594934e+002 -6.545570e+000 9.763463e+001
3080000000 -1.974942e+000 -1.132613e+002 -1.011773e+001 4.547343e+001 -4.497975e+001 -1.584750e+002 -9.136987e+000 6.062759e+001
3100000000 -2.096548e+000 -1.186412e+002 -1.176287e+001 4.127859e+001 -4.137439e+001 -1.507802e+002 -5.877532e+000 3.067939e+001
3120000000 -2.232934e+000 -1.240740e+002 -1.407842e+001 3.826905e+001 -3.826842e+001 -1.617137e+002 -1.720623e+000 1.863212e+001
3140000000 -2.424681e+000 -1.293080e+002 -1.677258e+001 4.071054e+001 -3.684163e+001 -1.727749e+002 4.738924e-001 2.305967e+001
3160000000 -2.622718e+000 -1.350148e+002 -1.911730e+001 5.002502e+001 -3.762721e+001 -1.784628e+002 7.522869e-001 2.841576e+001
3180000000 -2.768179e+000 -1.405897e+002 -2.093741e+001 6.810478e+001 -3.710269e+001 -1.788688e+002 1.388646e+000 3.744757e+001
3200000000 -2.923494e+000 -1.462276e+002 -2.101264e+001 8.875042e+001 -3.706950e+001 1.761057e+002 2.037449e+000 5.193199e+001
3220000000 -3.119844e+000 -1.520392e+002 -1.976276e+001 1.024031e+002 -3.741223e+001 -1.748883e+002 6.157477e-001 7.267294e+001
3240000000 -3.309785e+000 -1.588844e+002 -1.800043e+001 1.051248e+002 -3.692533e+001 -1.747232e+002 -9.781975e-001 9.161813e+001
3260000000 -3.477323e+000 -1.660430e+002 -1.671578e+001 1.044377e+002 -3.488589e+001 1.765351e+002 -4.977237e+000 1.106160e+002
3280000000 -3.644509e+000 -1.737280e+002 -1.511551e+001 9.903425e+001 -3.285313e+001 1.499667e+002 -1.125498e+001 1.168932e+002
3300000000 -3.933674e+000 1.775479e+002 -1.465340e+001 8.703624e+001 -3.253465e+001 1.284223e+002 -1.716812e+001 -2.262090e+001
3320000000 -4.385726e+000 1.670816e+002 -1.553987e+001 7.529487e+001 -3.358492e+001 1.068456e+002 -4.032716e+000 -2.246357e+001
3340000000 -5.013836e+000 1.556575e+002 -1.709748e+001 6.872183e+001 -3.441014e+001 8.804249e+001 -6.376212e-001 -1.302660e+001
3360000000 -5.944557e+000 1.432941e+002 -1.843910e+001 6.989871e+001 -3.652132e+001 7.509569e+001 1.700731e-001 -8.026198e+000
3380000000 -7.398663e+000 1.293469e+002 -1.941902e+001 7.490424e+001 -3.883581e+001 5.378484e+001 1.360146e+000 -3.373125e+000
3400000000 -9.518548e+000 1.130304e+002 -2.055373e+001 8.200392e+001 -4.429719e+001 4.572706e+001 2.245223e+000 1.419508e+001
3420000000 -1.271574e+001 9.246715e+001 -2.105385e+001 8.799059e+001 -4.596084e+001 7.632324e+001 1.090097e+000 2.987045e+001
3440000000 -1.779560e+001 5.902333e+001 -2.130041e+001 9.668287e+001 -4.464366e+001 8.502395e+001 8.291483e-001 4.389946e+001
3460000000 -2.122436e+001 -1.767365e+001 -2.122540e+001 1.086395e+002 -4.524678e+001 1.098282e+002 -1.031185e+000 6.259389e+001
3480000000 -1.598658e+001 -7.357157e+001 -2.011357e+001 1.158310e+002 -3.887643e+001 9.790088e+001 -5.639698e+000 6.610987e+001
3500000000 -1.196381e+001 -9.907683e+001 -1.918945e+001 1.202934e+002 -3.809203e+001 6.285421e+001 -1.271930e+001 -1.137402e+001
3520000000 -9.407347e+000 -1.165825e+002 -1.783780e+001 1.221427e+002 -3.953352e+001 4.402725e+001 -3.394624e+000 -4.751540e+001
3540000000 -7.709239e+000 -1.299793e+002 -1.670457e+001 1.221737e+002 -4.103348e+001 3.212260e+001 5.603753e-002 -4.848864e+001
3560000000 -6.487431e+000 -1.421990e+002 -1.563968e+001 1.223103e+002 -4.350750e+001 2.157049e+001 1.691720e+000 -4.202889e+001
3580000000 -5.584714e+000 -1.528407e+002 -1.450826e+001 1.226008e+002 -4.654099e+001 1.035466e+001 2.867168e+000 -3.144707e+001
3600000000 -4.916473e+000 -1.624494e+002 -1.349332e+001 1.223937e+002 -5.241910e+001 1.633302e+001 3.087328e+000 -1.387803e+001
3620000000 -4.427041e+000 -1.709290e+002 -1.183807e+001 1.207290e+002 -5.176360e+001 7.832124e+001 3.284720e+000 -6.090054e+000
3640000000 -4.037742e+000 -1.794899e+002 -1.005458e+001 1.174945e+002 -4.487831e+001 7.296407e+001 3.714960e+000 5.676713e+000
3660000000 -3.689867e+000 1.727540e+002 -8.589159e+000 1.108929e+002 -4.255630e+001 5.445508e+001 1.905609e+000 1.835211e+001
3680000000 -3.423486e+000 1.656008e+002 -7.566021e+000 1.004570e+002 -4.356311e+001 3.672692e+001 -2.577726e+000 1.606015e+001
3700000000 -3.218170e+000 1.588477e+002 -7.074582e+000 8.821316e+001 -4.486481e+001 3.298780e+001 -7.698338e+000 -3.514865e+001
3720000000 -3.051504e+000 1.520013e+002 -7.107624e+000 7.937440e+001 -4.532119e+001 3.063610e+001 -3.628966e+000 -8.391080e+001
3740000000 -2.877775e+000 1.456010e+002 -7.230825e+000 7.398743e+001 -4.586925e+001 3.842474e+001 3.669204e-001 -8.876964e+001
3760000000 -2.709234e+000 1.396785e+002 -7.278351e+000 7.069177e+001 -4.513689e+001 4.967226e+001 2.427154e+000 -7.834164e+001
3780000000 -2.625834e+000 1.342804e+002 -7.229936e+000 6.792732e+001 -4.327647e+001 3.850094e+001 3.279609e+000 -6.288478e+001
3800000000 -2.490844e+000 1.286892e+002 -6.668040e+000 6.573276e+001 -4.260514e+001 4.132774e+001 3.460824e+000 -5.031188e+001
3820000000 -2.411799e+000 1.233018e+002 -5.811305e+000 6.278737e+001 -4.204111e+001 4.381697e+001 3.563906e+000 -3.718579e+001
3840000000 -2.345307e+000 1.180016e+002 -4.808452e+000 5.780117e+001 -4.100471e+001 4.484159e+001 2.967013e+000 -2.564997e+001
3860000000 -2.300318e+000 1.128958e+002 -3.649073e+000 5.016437e+001 -3.937382e+001 5.533081e+001 1.765363e+000 -1.956297e+001
3880000000 -2.277111e+000 1.076864e+002 -3.032994e+000 3.859412e+001 -3.714727e+001 4.951295e+001 -2.587357e+000 -1.967105e+001
3900000000 -2.248362e+000 1.028526e+002 -3.029777e+000 2.789992e+001 -3.675317e+001 4.286723e+001 -1.058581e+001 -6.050088e+001
3920000000 -2.235088e+000 9.799587e+001 -3.234185e+000 2.098662e+001 -3.641713e+001 3.445080e+001 -6.229702e+000 -1.409059e+002
3940000000 -2.182964e+000 9.324239e+001 -3.325665e+000 1.734467e+001 -3.575818e+001 3.279137e+001 1.695931e-002 -1.423005e+002
3960000000 -2.153948e+000 8.867704e+001 -3.483706e+000 1.441784e+001 -3.560001e+001 3.252285e+001 2.594090e+000 -1.244900e+002
3980000000 -2.121220e+000 8.428230e+001 -3.310455e+000 1.044834e+001 -3.567938e+001 2.516097e+001 3.196499e+000 -1.091804e+002
4000000000 -2.116403e+000 8.010369e+001 -2.834741e+000 6.587825e+000 -3.425595e+001 2.291848e+001 3.388892e+000 -9.426127e+001
4020000000 -2.103222e+000 7.567194e+001 -2.225675e+000 1.222315e+000 -3.374313e+001 2.389582e+001 2.580781e+000 -8.065121e+001
4040000000 -2.066630e+000 7.143658e+001 -1.380831e+000 -7.618068e+000 -3.213520e+001 1.521779e+001 1.424441e+000 -7.505832e+001
